LTspice 24.0.9 for Windows
Circuit: * C:\users\lukas\Desktop\Link to work\git\LMWB\Quattro-Stagioni\Simulations\LTSpice\pt1000_messwandler_single_oamp.asc
Start Time: Thu Jan 16 14:36:23 2025
solver = Normal
Maximum thread count: 4



Direct Newton iteration for .op point succeeded.
Semiconductor Device Operating Points:
                        --- Diodes ---
Name:    d:u2:1      d:u2:4      d:u1:1      d:u1:4
Model:    u2:x        u2:di       u1:x        u1:di
Id:      4.07e-13    3.21e-15    1.49e-06    1.01e-11
Vd:      4.06e-01    3.21e-06    8.75e-01    1.01e-02
Req:     1.00e-12    1.00e-09    1.00e-04    1.00e-09
CAP:     0.00e+00    0.00e+00    0.00e+00    0.00e+00

                        --- VDMOSFET Transistors ---
Name:        m:u2:1      m:u2:2      m:u1:1      m:u1:2
Model:        u2:n        u2:p        u1:n        u1:p
Id:          2.24e-03   -2.26e-03    2.24e-03   -2.26e-03
Vgs:        -6.65e-04   -6.65e-04   -6.04e-04   -6.04e-04
Vds:         5.00e+00   -1.00e+00    5.07e+00   -9.35e-01
Vth:        -3.00e-01    3.00e-01   -3.00e-01    3.00e-01
Gm:          1.50e-02    1.50e-02    1.50e-02    1.50e-02
Gds:         0.00e+00    0.00e+00    0.00e+00    0.00e+00
Cgs:         0.00e+00    0.00e+00    0.00e+00    0.00e+00
Cgd:         0.00e+00    0.00e+00    0.00e+00    0.00e+00
Cbody:       0.00e+00    0.00e+00    0.00e+00    0.00e+00















































































































































tnom = 27
temp = 27
method = modified trap
Total elapsed time: 2.470 seconds.

