LTspice 24.0.9 for Windows
Circuit: * Z:\home\lukas\work\LTSpice\pt1000_messwandler_single_oamp.asc
Start Time: Sun Aug 25 10:19:42 2024
solver = Normal
Maximum thread count: 4



Direct Newton iteration for .op point succeeded.
Semiconductor Device Operating Points:
                        --- Diodes ---
Name:    d:u2:1      d:u2:4      d:u1:1      d:u1:4
Model:    u2:x        u2:di       u1:x        u1:di
Id:      6.52e-16    6.65e-15   -2.86e-17    5.48e-15
Vd:      6.52e-04    6.65e-06   -2.86e-05    5.48e-06
Req:     1.00e-12    1.00e-09    1.00e-12    1.00e-09
CAP:     0.00e+00    0.00e+00    0.00e+00    0.00e+00

                        --- VDMOSFET Transistors ---
Name:        m:u2:1      m:u2:2      m:u1:1      m:u1:2
Model:        u2:n        u2:p        u1:n        u1:p
Id:          2.24e-03   -2.26e-03    2.25e-03   -2.25e-03
Vgs:        -6.52e-04   -6.52e-04    2.95e-05    2.95e-05
Vds:         1.20e+01   -2.01e+00    1.11e+01   -2.89e+00
Vth:        -3.00e-01    3.00e-01   -3.00e-01    3.00e-01
Gm:          1.50e-02    1.50e-02    1.50e-02    1.50e-02
Gds:         0.00e+00    0.00e+00    0.00e+00    0.00e+00
Cgs:         0.00e+00    0.00e+00    0.00e+00    0.00e+00
Cgd:         0.00e+00    0.00e+00    0.00e+00    0.00e+00
Cbody:       0.00e+00    0.00e+00    0.00e+00    0.00e+00












































































































































































































































tnom = 27
temp = 27
method = modified trap
Total elapsed time: 1.906 seconds.

